!Agilent Technologies,E8363A,US42130174,A.06.04.32
!Agilent E8363A: A.06.04.32
!Date: Tuesday, October 02, 2012 17:21:22
!Correction: S22(Full 1 Port(2)) 
!S1P File: Measurement: S22:
# Hz S  RI   R 50
500000000  6.541319e-001  -7.509064e-001 
502000000  6.475921e-001  -7.567574e-001 
504000000  6.453221e-001  -7.611697e-001 
506000000  6.422446e-001  -7.630295e-001 
508000000  6.401787e-001  -7.622240e-001 
510000000  6.321450e-001  -7.651782e-001 
512000000  6.335286e-001  -7.696019e-001 
514000000  6.265481e-001  -7.731810e-001 
516000000  6.244359e-001  -7.730585e-001 
518000000  6.184425e-001  -7.802224e-001 
520000000  6.124982e-001  -7.835339e-001 
522000000  6.095026e-001  -7.862017e-001 
524000000  6.052248e-001  -7.890751e-001 
526000000  6.017769e-001  -7.915532e-001 
528000000  5.955780e-001  -7.935429e-001 
530000000  5.923834e-001  -7.973785e-001 
532000000  5.871391e-001  -7.954006e-001 
534000000  5.836646e-001  -8.027049e-001 
536000000  5.761787e-001  -8.085873e-001 
538000000  5.728027e-001  -8.069195e-001 
540000000  5.657833e-001  -8.117121e-001 
542000000  5.630389e-001  -8.160217e-001 
544000000  5.532992e-001  -8.199884e-001 
546000000  5.496672e-001  -8.196281e-001 
548000000  5.464650e-001  -8.232143e-001 
550000000  5.425438e-001  -8.215358e-001 
552000000  5.365079e-001  -8.269393e-001 
554000000  5.304114e-001  -8.305916e-001 
556000000  5.252659e-001  -8.342773e-001 
558000000  5.193342e-001  -8.356506e-001 
560000000  5.146417e-001  -8.383670e-001 
562000000  5.132673e-001  -8.396629e-001 
564000000  5.049961e-001  -8.373307e-001 
566000000  5.028355e-001  -8.474452e-001 
568000000  4.952840e-001  -8.472978e-001 
570000000  4.932184e-001  -8.487235e-001 
572000000  4.848100e-001  -8.487157e-001 
574000000  4.753880e-001  -8.539770e-001 
576000000  4.728911e-001  -8.560001e-001 
578000000  4.647469e-001  -8.645990e-001 
580000000  4.636588e-001  -8.599741e-001 
582000000  4.581632e-001  -8.649571e-001 
584000000  4.444356e-001  -8.662605e-001 
586000000  4.450460e-001  -8.685281e-001 
588000000  4.374270e-001  -8.683025e-001 
590000000  4.290263e-001  -8.706086e-001 
592000000  4.226035e-001  -8.746606e-001 
594000000  4.143353e-001  -8.753647e-001 
596000000  4.085048e-001  -8.803175e-001 
598000000  4.011172e-001  -8.806369e-001 
600000000  3.972063e-001  -8.830949e-001 
602000000  3.876432e-001  -8.867291e-001 
604000000  3.831436e-001  -8.881079e-001 
606000000  3.783920e-001  -8.906399e-001 
608000000  3.697399e-001  -8.889572e-001 
610000000  3.639680e-001  -8.893716e-001 
612000000  3.578964e-001  -8.941944e-001 
614000000  3.489603e-001  -8.956012e-001 
616000000  3.447123e-001  -8.944768e-001 
618000000  3.330475e-001  -8.989300e-001 
620000000  3.288283e-001  -8.975888e-001 
622000000  3.233869e-001  -9.008005e-001 
624000000  3.154492e-001  -9.050598e-001 
626000000  3.053737e-001  -9.022200e-001 
628000000  2.989615e-001  -9.007893e-001 
630000000  2.886860e-001  -9.032642e-001 
632000000  2.844682e-001  -9.065502e-001 
634000000  2.730420e-001  -9.045807e-001 
636000000  2.672095e-001  -9.090892e-001 
638000000  2.585519e-001  -9.073221e-001 
640000000  2.518635e-001  -9.076695e-001 
642000000  2.445082e-001  -9.064524e-001 
644000000  2.328639e-001  -9.083172e-001 
646000000  2.268389e-001  -9.071252e-001 
648000000  2.171484e-001  -9.074258e-001 
650000000  2.121036e-001  -9.044529e-001 
652000000  2.014425e-001  -9.075800e-001 
654000000  1.950223e-001  -9.069821e-001 
656000000  1.856959e-001  -9.057450e-001 
658000000  1.787011e-001  -9.040176e-001 
660000000  1.690131e-001  -9.076295e-001 
662000000  1.602557e-001  -9.043580e-001 
664000000  1.521483e-001  -9.049491e-001 
666000000  1.434699e-001  -9.016261e-001 
668000000  1.359835e-001  -9.052637e-001 
670000000  1.233406e-001  -9.001862e-001 
672000000  1.141432e-001  -9.034931e-001 
674000000  1.071493e-001  -8.996655e-001 
676000000  9.829937e-002  -8.975050e-001 
678000000  8.648326e-002  -8.978021e-001 
680000000  7.851008e-002  -8.970013e-001 
682000000  6.391656e-002  -8.974692e-001 
684000000  5.419940e-002  -8.916537e-001 
686000000  4.495150e-002  -8.905423e-001 
688000000  3.180218e-002  -8.819926e-001 
690000000  2.549367e-002  -8.781508e-001 
692000000  1.644790e-002  -8.727712e-001 
694000000  6.207624e-003  -8.713561e-001 
696000000  -7.684555e-004  -8.681181e-001 
698000000  -1.456568e-002  -8.606011e-001 
700000000  -1.935354e-002  -8.599066e-001 
702000000  -2.447356e-002  -8.537580e-001 
704000000  -3.416134e-002  -8.475921e-001 
706000000  -4.440728e-002  -8.474497e-001 
708000000  -5.557967e-002  -8.437451e-001 
710000000  -6.248140e-002  -8.409885e-001 
712000000  -7.202716e-002  -8.347437e-001 
714000000  -7.799603e-002  -8.301390e-001 
716000000  -9.076040e-002  -8.235728e-001 
718000000  -1.030679e-001  -8.195475e-001 
720000000  -1.143572e-001  -8.127720e-001 
722000000  -1.225637e-001  -8.070554e-001 
724000000  -1.319991e-001  -8.007094e-001 
726000000  -1.440962e-001  -7.952441e-001 
728000000  -1.494543e-001  -7.905581e-001 
730000000  -1.611093e-001  -7.785963e-001 
732000000  -1.714457e-001  -7.735084e-001 
734000000  -1.820339e-001  -7.627692e-001 
736000000  -1.900293e-001  -7.549937e-001 
738000000  -2.007933e-001  -7.446706e-001 
740000000  -2.074495e-001  -7.327851e-001 
742000000  -2.138275e-001  -7.218165e-001 
744000000  -2.173462e-001  -7.115652e-001 
746000000  -2.215980e-001  -7.002268e-001 
748000000  -2.244652e-001  -6.959205e-001 
750000000  -2.285559e-001  -6.875497e-001 
752000000  -2.332903e-001  -6.886140e-001 
754000000  -2.423180e-001  -6.795207e-001 
756000000  -2.497698e-001  -6.732631e-001 
758000000  -2.599299e-001  -6.682353e-001 
760000000  -2.714322e-001  -6.594538e-001 
762000000  -2.811369e-001  -6.528165e-001 
764000000  -2.928751e-001  -6.428254e-001 
766000000  -2.959916e-001  -6.313856e-001 
768000000  -3.073620e-001  -6.189904e-001 
770000000  -3.175222e-001  -6.088439e-001 
772000000  -3.233433e-001  -5.960720e-001 
774000000  -3.298271e-001  -5.856414e-001 
776000000  -3.386766e-001  -5.717081e-001 
778000000  -3.438847e-001  -5.569057e-001 
780000000  -3.498306e-001  -5.467571e-001 
782000000  -3.549567e-001  -5.350313e-001 
784000000  -3.641882e-001  -5.231735e-001 
786000000  -3.685458e-001  -5.106993e-001 
788000000  -3.741442e-001  -4.964116e-001 
790000000  -3.823252e-001  -4.803477e-001 
792000000  -3.860859e-001  -4.644167e-001 
794000000  -3.926719e-001  -4.508364e-001 
796000000  -3.969729e-001  -4.330350e-001 
798000000  -3.969319e-001  -4.198860e-001 
800000000  -3.966738e-001  -3.993574e-001 
802000000  -3.986937e-001  -3.875154e-001 
804000000  -4.016093e-001  -3.695167e-001 
806000000  -4.031858e-001  -3.548452e-001 
808000000  -4.011992e-001  -3.387612e-001 
810000000  -4.030316e-001  -3.223882e-001 
812000000  -4.040522e-001  -3.071469e-001 
814000000  -4.035322e-001  -2.882401e-001 
816000000  -4.018539e-001  -2.715362e-001 
818000000  -3.952244e-001  -2.563694e-001 
820000000  -3.904711e-001  -2.414048e-001 
822000000  -3.881312e-001  -2.256962e-001 
824000000  -3.836240e-001  -2.135603e-001 
826000000  -3.778676e-001  -1.972722e-001 
828000000  -3.702063e-001  -1.865298e-001 
830000000  -3.680426e-001  -1.746113e-001 
832000000  -3.649338e-001  -1.630155e-001 
834000000  -3.624189e-001  -1.506945e-001 
836000000  -3.605375e-001  -1.366800e-001 
838000000  -3.574935e-001  -1.205768e-001 
840000000  -3.514086e-001  -1.034524e-001 
842000000  -3.438031e-001  -8.854657e-002 
844000000  -3.375531e-001  -7.182617e-002 
846000000  -3.290416e-001  -5.927496e-002 
848000000  -3.180974e-001  -4.322755e-002 
850000000  -3.090611e-001  -2.919306e-002 
852000000  -2.977153e-001  -1.843023e-002 
854000000  -2.858376e-001  -7.250941e-003 
856000000  -2.746037e-001  1.374595e-003 
858000000  -2.625403e-001  1.076009e-002 
860000000  -2.521909e-001  1.760954e-002 
862000000  -2.436351e-001  2.540545e-002 
864000000  -2.368091e-001  3.236420e-002 
866000000  -2.279712e-001  4.165569e-002 
868000000  -2.185493e-001  5.113320e-002 
870000000  -2.074846e-001  6.013163e-002 
872000000  -1.965566e-001  6.823759e-002 
874000000  -1.872147e-001  7.580664e-002 
876000000  -1.776987e-001  8.245543e-002 
878000000  -1.675406e-001  8.976626e-002 
880000000  -1.573899e-001  9.731585e-002 
882000000  -1.460014e-001  1.026934e-001 
884000000  -1.348856e-001  1.086167e-001 
886000000  -1.249523e-001  1.149375e-001 
888000000  -1.157361e-001  1.195183e-001 
890000000  -1.056454e-001  1.255081e-001 
892000000  -9.656417e-002  1.344205e-001 
894000000  -8.447394e-002  1.411872e-001 
896000000  -7.005595e-002  1.474783e-001 
898000000  -5.567859e-002  1.514228e-001 
900000000  -4.162773e-002  1.517793e-001 
902000000  -2.964809e-002  1.531053e-001 
904000000  -1.977763e-002  1.535971e-001 
906000000  -1.118560e-002  1.545533e-001 
908000000  -1.873368e-003  1.562200e-001 
910000000  7.867790e-003  1.591764e-001 
912000000  1.710353e-002  1.624344e-001 
914000000  2.818780e-002  1.646501e-001 
916000000  3.854743e-002  1.667985e-001 
918000000  5.131944e-002  1.686144e-001 
920000000  6.135434e-002  1.685285e-001 
922000000  7.404448e-002  1.697150e-001 
924000000  8.506151e-002  1.676162e-001 
926000000  9.470380e-002  1.641687e-001 
928000000  1.035294e-001  1.602333e-001 
930000000  1.107998e-001  1.592849e-001 
932000000  1.173779e-001  1.576209e-001 
934000000  1.236922e-001  1.585863e-001 
936000000  1.294850e-001  1.574666e-001 
938000000  1.357100e-001  1.572976e-001 
940000000  1.431914e-001  1.580457e-001 
942000000  1.499660e-001  1.588202e-001 
944000000  1.557734e-001  1.630868e-001 
946000000  1.648025e-001  1.668034e-001 
948000000  1.748757e-001  1.709692e-001 
950000000  1.886389e-001  1.727328e-001 
952000000  2.023190e-001  1.712803e-001 
954000000  2.146589e-001  1.682320e-001 
956000000  2.246707e-001  1.641143e-001 
958000000  2.345222e-001  1.590367e-001 
960000000  2.421046e-001  1.554745e-001 
962000000  2.497966e-001  1.489735e-001 
964000000  2.558071e-001  1.427857e-001 
966000000  2.626275e-001  1.409589e-001 
968000000  2.656992e-001  1.380582e-001 
970000000  2.714034e-001  1.344426e-001 
972000000  2.795663e-001  1.336400e-001 
974000000  2.850034e-001  1.308329e-001 
976000000  2.921328e-001  1.293349e-001 
978000000  2.995416e-001  1.262585e-001 
980000000  3.040194e-001  1.229427e-001 
982000000  3.111229e-001  1.195561e-001 
984000000  3.178936e-001  1.185101e-001 
986000000  3.231778e-001  1.138072e-001 
988000000  3.292312e-001  1.090576e-001 
990000000  3.348722e-001  1.084204e-001 
992000000  3.379027e-001  1.046635e-001 
994000000  3.425404e-001  1.014998e-001 
996000000  3.482490e-001  9.752151e-002 
998000000  3.538656e-001  9.669884e-002 
1000000000  3.607808e-001  9.418831e-002 
1002000000  3.671357e-001  9.153578e-002 
1004000000  3.732014e-001  8.528051e-002 
1006000000  3.780812e-001  8.241988e-002 
1008000000  3.832435e-001  7.804513e-002 
1010000000  3.852929e-001  7.497626e-002 
1012000000  3.916822e-001  7.233918e-002 
1014000000  3.957578e-001  6.877606e-002 
1016000000  4.026900e-001  6.695578e-002 
1018000000  4.087712e-001  6.389950e-002 
1020000000  4.161218e-001  5.819127e-002 
1022000000  4.234879e-001  5.477960e-002 
1024000000  4.265143e-001  4.854167e-002 
1026000000  4.326512e-001  4.199364e-002 
1028000000  4.357453e-001  3.762584e-002 
1030000000  4.393295e-001  3.126268e-002 
1032000000  4.413658e-001  2.443478e-002 
1034000000  4.441846e-001  1.953614e-002 
1036000000  4.455285e-001  1.639002e-002 
1038000000  4.488955e-001  1.241132e-002 
1040000000  4.500650e-001  7.549978e-003 
1042000000  4.509834e-001  5.695931e-003 
1044000000  4.570569e-001  1.419270e-003 
1046000000  4.565564e-001  3.836842e-004 
1048000000  4.608348e-001  -6.516445e-003 
1050000000  4.623565e-001  -9.501510e-003 
1052000000  4.630163e-001  -1.425308e-002 
1054000000  4.656111e-001  -1.613138e-002 
1056000000  4.700912e-001  -1.964616e-002 
1058000000  4.724702e-001  -2.188418e-002 
1060000000  4.733624e-001  -2.484506e-002 
1062000000  4.770547e-001  -3.020670e-002 
1064000000  4.810054e-001  -3.124227e-002 
1066000000  4.845637e-001  -3.464217e-002 
1068000000  4.864341e-001  -3.844377e-002 
1070000000  4.915459e-001  -4.284936e-002 
1072000000  4.933622e-001  -4.589153e-002 
1074000000  4.951309e-001  -5.039985e-002 
1076000000  4.971666e-001  -5.595049e-002 
1078000000  5.008481e-001  -5.834986e-002 
1080000000  5.044171e-001  -6.571329e-002 
1082000000  5.044397e-001  -7.173322e-002 
1084000000  5.070326e-001  -7.676176e-002 
1086000000  5.058048e-001  -8.184071e-002 
1088000000  5.084323e-001  -8.644672e-002 
1090000000  5.085439e-001  -8.950645e-002 
1092000000  5.064077e-001  -9.302139e-002 
1094000000  5.087216e-001  -9.882411e-002 
1096000000  5.060927e-001  -1.012157e-001 
1098000000  5.045674e-001  -1.037285e-001 
1100000000  5.064241e-001  -1.053195e-001 
1102000000  5.045671e-001  -1.076110e-001 
1104000000  5.103669e-001  -1.095703e-001 
1106000000  5.109197e-001  -1.104665e-001 
1108000000  5.127544e-001  -1.123932e-001 
1110000000  5.145259e-001  -1.144574e-001 
1112000000  5.145574e-001  -1.183888e-001 
1114000000  5.172257e-001  -1.202158e-001 
1116000000  5.185210e-001  -1.245748e-001 
1118000000  5.213701e-001  -1.292794e-001 
1120000000  5.206437e-001  -1.348806e-001 
1122000000  5.211344e-001  -1.369906e-001 
1124000000  5.233088e-001  -1.401671e-001 
1126000000  5.217167e-001  -1.436401e-001 
1128000000  5.206640e-001  -1.442207e-001 
1130000000  5.196255e-001  -1.458035e-001 
1132000000  5.213368e-001  -1.481848e-001 
1134000000  5.238767e-001  -1.496732e-001 
1136000000  5.252383e-001  -1.523527e-001 
1138000000  5.262526e-001  -1.545817e-001 
1140000000  5.293422e-001  -1.561606e-001 
1142000000  5.298340e-001  -1.572495e-001 
1144000000  5.319399e-001  -1.590702e-001 
1146000000  5.347549e-001  -1.656243e-001 
1148000000  5.373465e-001  -1.691668e-001 
1150000000  5.366455e-001  -1.739608e-001 
1152000000  5.379854e-001  -1.754906e-001 
1154000000  5.386851e-001  -1.796590e-001 
1156000000  5.420009e-001  -1.835722e-001 
1158000000  5.409772e-001  -1.871399e-001 
1160000000  5.407912e-001  -1.904585e-001 
1162000000  5.391093e-001  -1.960662e-001 
1164000000  5.376815e-001  -1.980811e-001 
1166000000  5.393900e-001  -2.005178e-001 
1168000000  5.365563e-001  -2.022147e-001 
1170000000  5.389650e-001  -2.041808e-001 
1172000000  5.398635e-001  -2.046279e-001 
1174000000  5.408350e-001  -2.066871e-001 
1176000000  5.395790e-001  -2.108453e-001 
1178000000  5.392097e-001  -2.149811e-001 
1180000000  5.392051e-001  -2.175607e-001 
1182000000  5.385483e-001  -2.174065e-001 
1184000000  5.375041e-001  -2.171170e-001 
1186000000  5.398462e-001  -2.201941e-001 
1188000000  5.397350e-001  -2.206389e-001 
1190000000  5.415896e-001  -2.215851e-001 
1192000000  5.447003e-001  -2.257557e-001 
1194000000  5.432076e-001  -2.260754e-001 
1196000000  5.448070e-001  -2.274255e-001 
1198000000  5.460166e-001  -2.326725e-001 
1200000000  5.464852e-001  -2.331958e-001 
1202000000  5.477297e-001  -2.392350e-001 
1204000000  5.476747e-001  -2.412151e-001 
1206000000  5.489894e-001  -2.432886e-001 
1208000000  5.471334e-001  -2.448886e-001 
1210000000  5.502074e-001  -2.459656e-001 
1212000000  5.513353e-001  -2.480054e-001 
1214000000  5.531703e-001  -2.525685e-001 
1216000000  5.520810e-001  -2.553765e-001 
1218000000  5.522360e-001  -2.551982e-001 
1220000000  5.514653e-001  -2.594019e-001 
1222000000  5.516116e-001  -2.614666e-001 
1224000000  5.519639e-001  -2.635474e-001 
1226000000  5.509778e-001  -2.651152e-001 
1228000000  5.534939e-001  -2.661804e-001 
1230000000  5.534174e-001  -2.686484e-001 
1232000000  5.526456e-001  -2.715644e-001 
1234000000  5.525801e-001  -2.742284e-001 
1236000000  5.549644e-001  -2.765464e-001 
1238000000  5.556087e-001  -2.800966e-001 
1240000000  5.575117e-001  -2.817260e-001 
1242000000  5.591651e-001  -2.833535e-001 
1244000000  5.580955e-001  -2.858966e-001 
1246000000  5.602363e-001  -2.913620e-001 
1248000000  5.564545e-001  -2.911355e-001 
1250000000  5.609758e-001  -2.934025e-001 
1252000000  5.581824e-001  -2.947409e-001 
1254000000  5.625007e-001  -2.997879e-001 
1256000000  5.621704e-001  -3.027425e-001 
1258000000  5.618762e-001  -3.054730e-001 
1260000000  5.609167e-001  -3.096021e-001 
1262000000  5.585318e-001  -3.151382e-001 
1264000000  5.596493e-001  -3.155764e-001 
1266000000  5.586633e-001  -3.170530e-001 
1268000000  5.587044e-001  -3.201341e-001 
1270000000  5.587156e-001  -3.210167e-001 
1272000000  5.591114e-001  -3.197895e-001 
1274000000  5.605147e-001  -3.238379e-001 
1276000000  5.598688e-001  -3.258021e-001 
1278000000  5.595199e-001  -3.288838e-001 
1280000000  5.603773e-001  -3.308029e-001 
1282000000  5.601506e-001  -3.322025e-001 
1284000000  5.593475e-001  -3.354967e-001 
1286000000  5.609188e-001  -3.364216e-001 
1288000000  5.642020e-001  -3.424510e-001 
1290000000  5.614458e-001  -3.444409e-001 
1292000000  5.633999e-001  -3.449979e-001 
1294000000  5.608684e-001  -3.499014e-001 
1296000000  5.587421e-001  -3.524926e-001 
1298000000  5.588415e-001  -3.546921e-001 
1300000000  5.605735e-001  -3.587250e-001 
1302000000  5.567339e-001  -3.603889e-001 
1304000000  5.558645e-001  -3.605096e-001 
1306000000  5.552114e-001  -3.598768e-001 
1308000000  5.547476e-001  -3.659880e-001 
1310000000  5.565670e-001  -3.627109e-001 
1312000000  5.560040e-001  -3.679847e-001 
1314000000  5.567043e-001  -3.670973e-001 
1316000000  5.568193e-001  -3.695191e-001 
1318000000  5.569208e-001  -3.721102e-001 
1320000000  5.588506e-001  -3.749516e-001 
1322000000  5.594126e-001  -3.748726e-001 
1324000000  5.583676e-001  -3.782613e-001 
1326000000  5.629911e-001  -3.799483e-001 
1328000000  5.602671e-001  -3.803477e-001 
1330000000  5.609739e-001  -3.829612e-001 
1332000000  5.622857e-001  -3.874879e-001 
1334000000  5.653693e-001  -3.884716e-001 
1336000000  5.637550e-001  -3.923686e-001 
1338000000  5.609946e-001  -3.988939e-001 
1340000000  5.644802e-001  -3.967335e-001 
1342000000  5.623550e-001  -4.010829e-001 
1344000000  5.618500e-001  -4.045464e-001 
1346000000  5.604359e-001  -4.074791e-001 
1348000000  5.589564e-001  -4.121155e-001 
1350000000  5.596528e-001  -4.133859e-001 
1352000000  5.551349e-001  -4.137193e-001 
1354000000  5.565172e-001  -4.165821e-001 
1356000000  5.565573e-001  -4.189347e-001 
1358000000  5.518814e-001  -4.197332e-001 
1360000000  5.530383e-001  -4.209536e-001 
1362000000  5.523193e-001  -4.221202e-001 
1364000000  5.513332e-001  -4.211353e-001 
1366000000  5.560142e-001  -4.234356e-001 
1368000000  5.550976e-001  -4.272666e-001 
1370000000  5.548161e-001  -4.295384e-001 
1372000000  5.553656e-001  -4.318358e-001 
1374000000  5.568066e-001  -4.346579e-001 
1376000000  5.574197e-001  -4.371241e-001 
1378000000  5.545422e-001  -4.406340e-001 
1380000000  5.565479e-001  -4.417369e-001 
1382000000  5.598982e-001  -4.442452e-001 
1384000000  5.561079e-001  -4.511072e-001 
1386000000  5.571025e-001  -4.490420e-001 
1388000000  5.549586e-001  -4.539269e-001 
1390000000  5.546843e-001  -4.568169e-001 
1392000000  5.539027e-001  -4.591698e-001 
1394000000  5.540813e-001  -4.627021e-001 
1396000000  5.531412e-001  -4.636409e-001 
1398000000  5.538866e-001  -4.647166e-001 
1400000000  5.533026e-001  -4.655651e-001 
1402000000  5.547406e-001  -4.672535e-001 
1404000000  5.538644e-001  -4.736362e-001 
1406000000  5.510650e-001  -4.737343e-001 
1408000000  5.529197e-001  -4.745830e-001 
1410000000  5.531356e-001  -4.764568e-001 
1412000000  5.513977e-001  -4.786923e-001 
1414000000  5.522420e-001  -4.816252e-001 
1416000000  5.530205e-001  -4.855475e-001 
1418000000  5.503903e-001  -4.893958e-001 
1420000000  5.496728e-001  -4.910901e-001 
1422000000  5.508855e-001  -4.937561e-001 
1424000000  5.502754e-001  -4.986259e-001 
1426000000  5.495464e-001  -4.988035e-001 
1428000000  5.448543e-001  -5.003589e-001 
