!Agilent Technologies,E8363A,US42130174,A.06.04.32
!Agilent E8363A: A.06.04.32
!Date: Monday, September 13, 2010 16:54:50
!Correction: S11(Full 1 Port(1)) 
!S1P File: Measurement: S11:
# Hz S  RI   R 50
500000000  5.806582e-003  7.759672e-001 
502500000  2.856893e-002  7.663449e-001 
505000000  4.590041e-002  7.551981e-001 
507500000  6.151403e-002  7.421636e-001 
510000000  8.101191e-002  7.308930e-001 
512500000  9.483240e-002  7.176324e-001 
515000000  1.053310e-001  7.046549e-001 
517500000  1.170646e-001  6.837565e-001 
520000000  1.279673e-001  6.691850e-001 
522500000  1.325167e-001  6.520110e-001 
525000000  1.360908e-001  6.379177e-001 
527500000  1.345212e-001  6.258575e-001 
530000000  1.298804e-001  6.119950e-001 
532500000  1.223599e-001  6.041977e-001 
535000000  1.140691e-001  6.038644e-001 
537500000  1.091196e-001  6.090407e-001 
540000000  1.075315e-001  6.181712e-001 
542500000  1.077835e-001  6.347998e-001 
545000000  1.155475e-001  6.477640e-001 
547500000  1.258258e-001  6.616665e-001 
550000000  1.421539e-001  6.728607e-001 
552500000  1.632971e-001  6.790411e-001 
555000000  1.829055e-001  6.834868e-001 
557500000  2.027883e-001  6.889252e-001 
560000000  2.246628e-001  6.861128e-001 
562500000  2.478241e-001  6.863257e-001 
565000000  2.670401e-001  6.803184e-001 
567500000  2.898445e-001  6.740573e-001 
570000000  3.113501e-001  6.659136e-001 
572500000  3.307891e-001  6.606655e-001 
575000000  3.498673e-001  6.461931e-001 
577500000  3.645573e-001  6.349666e-001 
580000000  3.771912e-001  6.238666e-001 
582500000  3.921000e-001  6.126283e-001 
585000000  4.021612e-001  6.037166e-001 
587500000  4.136450e-001  5.910698e-001 
590000000  4.225067e-001  5.798331e-001 
592500000  4.309697e-001  5.751144e-001 
595000000  4.401046e-001  5.683582e-001 
597500000  4.541910e-001  5.598499e-001 
600000000  4.643233e-001  5.543859e-001 
602500000  4.791581e-001  5.491754e-001 
605000000  4.928271e-001  5.382288e-001 
607500000  5.026457e-001  5.304084e-001 
610000000  5.145890e-001  5.246347e-001 
612500000  5.282256e-001  5.152631e-001 
615000000  5.431407e-001  5.094678e-001 
617500000  5.585058e-001  4.976284e-001 
620000000  5.721286e-001  4.864105e-001 
622500000  5.866083e-001  4.738932e-001 
625000000  5.994900e-001  4.624286e-001 
627500000  6.136720e-001  4.495844e-001 
630000000  6.238043e-001  4.374369e-001 
632500000  6.395370e-001  4.233485e-001 
635000000  6.520397e-001  4.094235e-001 
637500000  6.649958e-001  3.957990e-001 
640000000  6.781884e-001  3.812102e-001 
642500000  6.907504e-001  3.682249e-001 
645000000  7.029614e-001  3.520878e-001 
647500000  7.171146e-001  3.366996e-001 
650000000  7.297740e-001  3.219570e-001 
652500000  7.458759e-001  3.046129e-001 
655000000  7.607622e-001  2.845554e-001 
657500000  7.731711e-001  2.630437e-001 
660000000  7.847779e-001  2.392096e-001 
662500000  7.960042e-001  2.195640e-001 
665000000  8.073654e-001  1.919268e-001 
667500000  8.165071e-001  1.677762e-001 
670000000  8.226480e-001  1.424768e-001 
672500000  8.301376e-001  1.140727e-001 
675000000  8.381309e-001  8.979242e-002 
677500000  8.411825e-001  5.982659e-002 
680000000  8.430657e-001  3.283644e-002 
682500000  8.494901e-001  5.156878e-003 
685000000  8.488579e-001  -2.637519e-002 
687500000  8.509593e-001  -5.515154e-002 
690000000  8.479350e-001  -8.597722e-002 
692500000  8.441836e-001  -1.155647e-001 
695000000  8.381623e-001  -1.450104e-001 
697500000  8.325436e-001  -1.759990e-001 
700000000  8.251752e-001  -2.058980e-001 
702500000  8.178527e-001  -2.353847e-001 
705000000  8.073633e-001  -2.653212e-001 
707500000  7.941542e-001  -2.897209e-001 
710000000  7.806545e-001  -3.219178e-001 
712500000  7.668725e-001  -3.487963e-001 
715000000  7.488366e-001  -3.765919e-001 
717500000  7.315125e-001  -4.024342e-001 
720000000  7.106357e-001  -4.279279e-001 
722500000  6.904206e-001  -4.537308e-001 
725000000  6.692120e-001  -4.778738e-001 
727500000  6.455485e-001  -4.961412e-001 
730000000  6.201097e-001  -5.191309e-001 
732500000  5.953867e-001  -5.388699e-001 
735000000  5.678222e-001  -5.551680e-001 
737500000  5.412638e-001  -5.705591e-001 
740000000  5.142495e-001  -5.833355e-001 
742500000  4.857909e-001  -5.981686e-001 
745000000  4.582308e-001  -6.073123e-001 
747500000  4.299566e-001  -6.190470e-001 
750000000  3.994676e-001  -6.260185e-001 
752500000  3.741331e-001  -6.322472e-001 
755000000  3.412762e-001  -6.388841e-001 
757500000  3.123406e-001  -6.428728e-001 
760000000  2.829401e-001  -6.417515e-001 
762500000  2.538325e-001  -6.406150e-001 
765000000  2.222172e-001  -6.419209e-001 
767500000  1.981103e-001  -6.362415e-001 
770000000  1.705932e-001  -6.315771e-001 
772500000  1.446664e-001  -6.243579e-001 
775000000  1.172148e-001  -6.195081e-001 
777500000  9.363177e-002  -6.095110e-001 
780000000  6.824169e-002  -6.017744e-001 
782500000  4.561532e-002  -5.877923e-001 
785000000  2.421252e-002  -5.745100e-001 
787500000  4.436002e-003  -5.625980e-001 
790000000  -1.560548e-002  -5.476749e-001 
792500000  -3.206677e-002  -5.331183e-001 
795000000  -5.121240e-002  -5.177039e-001 
797500000  -6.553035e-002  -5.015265e-001 
800000000  -7.998877e-002  -4.866042e-001 
802500000  -9.258130e-002  -4.701997e-001 
805000000  -1.062734e-001  -4.572363e-001 
807500000  -1.173619e-001  -4.383916e-001 
810000000  -1.303780e-001  -4.210903e-001 
812500000  -1.389626e-001  -4.021819e-001 
815000000  -1.486445e-001  -3.870868e-001 
817500000  -1.539202e-001  -3.688904e-001 
820000000  -1.606228e-001  -3.505268e-001 
822500000  -1.662825e-001  -3.326220e-001 
825000000  -1.701574e-001  -3.142258e-001 
827500000  -1.738719e-001  -2.975852e-001 
830000000  -1.768883e-001  -2.811762e-001 
832500000  -1.768752e-001  -2.623180e-001 
835000000  -1.756080e-001  -2.462320e-001 
837500000  -1.754782e-001  -2.294766e-001 
840000000  -1.738117e-001  -2.132171e-001 
842500000  -1.693591e-001  -1.978241e-001 
845000000  -1.652789e-001  -1.842626e-001 
847500000  -1.610724e-001  -1.707805e-001 
850000000  -1.570457e-001  -1.575271e-001 
852500000  -1.525323e-001  -1.446043e-001 
855000000  -1.467581e-001  -1.308702e-001 
857500000  -1.385983e-001  -1.178548e-001 
860000000  -1.284178e-001  -1.072656e-001 
862500000  -1.190731e-001  -9.741041e-002 
865000000  -1.098609e-001  -8.874409e-002 
867500000  -1.000423e-001  -8.083907e-002 
870000000  -9.022118e-002  -7.187742e-002 
872500000  -7.763413e-002  -6.650419e-002 
875000000  -6.615885e-002  -6.095046e-002 
877500000  -5.443055e-002  -5.669793e-002 
880000000  -4.217019e-002  -5.495929e-002 
882500000  -3.143102e-002  -5.347775e-002 
885000000  -1.992803e-002  -5.332536e-002 
887500000  -9.153214e-003  -5.412094e-002 
890000000  1.543643e-003  -5.497586e-002 
892500000  1.111009e-002  -5.765207e-002 
895000000  2.179370e-002  -6.090264e-002 
897500000  2.999767e-002  -6.310791e-002 
900000000  3.796510e-002  -6.748171e-002 
902500000  4.759641e-002  -7.199853e-002 
905000000  5.593230e-002  -7.739405e-002 
907500000  6.395660e-002  -8.334705e-002 
910000000  7.091693e-002  -8.962529e-002 
912500000  7.972907e-002  -9.617030e-002 
915000000  8.556633e-002  -1.042018e-001 
917500000  9.225856e-002  -1.142674e-001 
920000000  9.724324e-002  -1.235334e-001 
922500000  1.005303e-001  -1.335005e-001 
925000000  1.038656e-001  -1.435097e-001 
927500000  1.049432e-001  -1.546814e-001 
930000000  1.050728e-001  -1.641446e-001 
932500000  1.051118e-001  -1.737271e-001 
935000000  1.059635e-001  -1.813221e-001 
937500000  1.073455e-001  -1.907544e-001 
940000000  1.050950e-001  -1.990151e-001 
942500000  1.053415e-001  -2.083352e-001 
945000000  1.043147e-001  -2.188734e-001 
947500000  1.031729e-001  -2.300983e-001 
950000000  9.994034e-002  -2.405264e-001 
952500000  9.487900e-002  -2.492740e-001 
955000000  9.193221e-002  -2.579679e-001 
957500000  8.520658e-002  -2.703595e-001 
960000000  7.717678e-002  -2.795233e-001 
962500000  6.913366e-002  -2.875246e-001 
965000000  6.282522e-002  -2.946503e-001 
967500000  5.750219e-002  -3.026872e-001 
970000000  5.121153e-002  -3.118282e-001 
972500000  4.400795e-002  -3.215371e-001 
975000000  3.866342e-002  -3.312925e-001 
977500000  3.543350e-002  -3.521495e-001 
980000000  -8.177998e-003  -3.845405e-001 
982500000  -3.654577e-002  -3.454236e-001 
985000000  -3.322232e-002  -3.392661e-001 
987500000  -3.742479e-002  -3.430075e-001 
990000000  -4.576859e-002  -3.460641e-001 
992500000  -5.633329e-002  -3.493878e-001 
995000000  -6.691598e-002  -3.486811e-001 
997500000  -7.565312e-002  -3.497579e-001 
1000000000  -8.554476e-002  -3.499375e-001 
1002500000  -9.688204e-002  -3.506748e-001 
1005000000  -1.072083e-001  -3.496940e-001 
1007500000  -1.169086e-001  -3.503433e-001 
1010000000  -1.266059e-001  -3.500314e-001 
1012500000  -1.386427e-001  -3.501147e-001 
1015000000  -1.501828e-001  -3.484953e-001 
1017500000  -1.579407e-001  -3.480048e-001 
1020000000  -1.695474e-001  -3.458573e-001 
1022500000  -1.799591e-001  -3.448454e-001 
1025000000  -1.911087e-001  -3.408380e-001 
1027500000  -2.020441e-001  -3.385350e-001 
1030000000  -2.129697e-001  -3.356712e-001 
1032500000  -2.239246e-001  -3.317927e-001 
1035000000  -2.356309e-001  -3.274593e-001 
1037500000  -2.462273e-001  -3.241804e-001 
1040000000  -2.579674e-001  -3.184828e-001 
1042500000  -2.665327e-001  -3.137973e-001 
1045000000  -2.772424e-001  -3.071974e-001 
1047500000  -2.865018e-001  -3.027946e-001 
1050000000  -2.985106e-001  -2.961228e-001 
1052500000  -3.087741e-001  -2.904492e-001 
1055000000  -3.178829e-001  -2.803979e-001 
1057500000  -3.271942e-001  -2.737882e-001 
1060000000  -3.379879e-001  -2.664955e-001 
1062500000  -3.460948e-001  -2.567100e-001 
1065000000  -3.559280e-001  -2.488220e-001 
1067500000  -3.647122e-001  -2.394840e-001 
1070000000  -3.719781e-001  -2.305343e-001 
1072500000  -3.797249e-001  -2.208067e-001 
1075000000  -3.866023e-001  -2.098746e-001 
1077500000  -3.936079e-001  -2.031587e-001 
1080000000  -4.001378e-001  -1.919351e-001 
1082500000  -4.075610e-001  -1.832634e-001 
1085000000  -4.138616e-001  -1.717471e-001 
1087500000  -4.200493e-001  -1.619918e-001 
1090000000  -4.262518e-001  -1.521725e-001 
1092500000  -4.300140e-001  -1.397719e-001 
1095000000  -4.357977e-001  -1.288402e-001 
1097500000  -4.397542e-001  -1.154233e-001 
1100000000  -4.452105e-001  -1.062154e-001 
1102500000  -4.473654e-001  -9.534385e-002 
1105000000  -4.521993e-001  -8.225568e-002 
1107500000  -4.527147e-001  -7.163835e-002 
1110000000  -4.549481e-001  -6.181527e-002 
1112500000  -4.576227e-001  -5.118966e-002 
1115000000  -4.595234e-001  -4.045055e-002 
1117500000  -4.620668e-001  -3.063189e-002 
1120000000  -4.639282e-001  -1.978809e-002 
1122500000  -4.675964e-001  -4.881808e-003 
1125000000  -4.692809e-001  7.588647e-003 
1127500000  -4.703081e-001  1.872732e-002 
1130000000  -4.692684e-001  3.077052e-002 
1132500000  -4.706536e-001  4.420416e-002 
1135000000  -4.676603e-001  5.628698e-002 
1137500000  -4.674962e-001  6.710932e-002 
1140000000  -4.654213e-001  7.926264e-002 
1142500000  -4.649083e-001  8.817505e-002 
1145000000  -4.634373e-001  1.016288e-001 
1147500000  -4.592512e-001  1.148096e-001 
1150000000  -4.583465e-001  1.258447e-001 
1152500000  -4.553108e-001  1.357048e-001 
1155000000  -4.517614e-001  1.452927e-001 
1157500000  -4.490491e-001  1.558570e-001 
1160000000  -4.477179e-001  1.670324e-001 
1162500000  -4.442857e-001  1.779229e-001 
1165000000  -4.402056e-001  1.900546e-001 
1167500000  -4.357083e-001  2.011181e-001 
1170000000  -4.347088e-001  2.116253e-001 
1172500000  -4.300708e-001  2.228960e-001 
1175000000  -4.274867e-001  2.332029e-001 
1177500000  -4.215640e-001  2.473463e-001 
1180000000  -4.173840e-001  2.583411e-001 
1182500000  -4.114528e-001  2.699331e-001 
1185000000  -4.041850e-001  2.811163e-001 
1187500000  -3.971116e-001  2.915577e-001 
1190000000  -3.909698e-001  3.012127e-001 
1192500000  -3.824519e-001  3.133156e-001 
1195000000  -3.761081e-001  3.224450e-001 
1197500000  -3.703352e-001  3.319374e-001 
1200000000  -3.620447e-001  3.440807e-001 
1202500000  -3.535977e-001  3.527506e-001 
1205000000  -3.459055e-001  3.641035e-001 
1207500000  -3.364055e-001  3.724441e-001 
1210000000  -3.289734e-001  3.821018e-001 
1212500000  -3.203339e-001  3.907830e-001 
1215000000  -3.085425e-001  4.027512e-001 
1217500000  -3.008100e-001  4.103664e-001 
1220000000  -2.898503e-001  4.219273e-001 
1222500000  -2.772196e-001  4.273402e-001 
1225000000  -2.680891e-001  4.365688e-001 
1227500000  -2.580544e-001  4.421277e-001 
1230000000  -2.457260e-001  4.503272e-001 
1232500000  -2.367865e-001  4.575593e-001 
1235000000  -2.251010e-001  4.646643e-001 
1237500000  -2.145319e-001  4.693431e-001 
1240000000  -2.036996e-001  4.782169e-001 
1242500000  -1.915941e-001  4.834389e-001 
1245000000  -1.809742e-001  4.889503e-001 
1247500000  -1.675360e-001  4.953536e-001 
1250000000  -1.541305e-001  4.994289e-001 
1252500000  -1.416406e-001  5.057988e-001 
1255000000  -1.307349e-001  5.097101e-001 
1257500000  -1.172567e-001  5.143458e-001 
1260000000  -1.050115e-001  5.184442e-001 
1262500000  -9.120828e-002  5.214615e-001 
1265000000  -7.817294e-002  5.245190e-001 
1267500000  -6.373060e-002  5.261428e-001 
1270000000  -5.185329e-002  5.280924e-001 
1272500000  -3.728887e-002  5.311891e-001 
1275000000  -2.297421e-002  5.299201e-001 
1277500000  -1.181684e-002  5.303627e-001 
1280000000  1.260330e-003  5.293368e-001 
1282500000  1.352886e-002  5.293709e-001 
1285000000  2.580041e-002  5.300106e-001 
1287500000  3.688192e-002  5.292849e-001 
1290000000  4.985666e-002  5.286962e-001 
1292500000  6.033587e-002  5.258548e-001 
1295000000  7.490986e-002  5.276909e-001 
1297500000  8.481863e-002  5.260798e-001 
1300000000  9.759074e-002  5.245092e-001 
1302500000  1.098428e-001  5.203102e-001 
1305000000  1.214401e-001  5.189574e-001 
1307500000  1.341602e-001  5.161741e-001 
1310000000  1.434011e-001  5.147659e-001 
1312500000  1.595745e-001  5.117671e-001 
1315000000  1.687182e-001  5.096504e-001 
1317500000  1.794373e-001  5.057953e-001 
1320000000  1.927579e-001  5.012422e-001 
1322500000  2.039639e-001  4.971791e-001 
1325000000  2.152712e-001  4.928127e-001 
1327500000  2.269303e-001  4.896590e-001 
1330000000  2.376303e-001  4.852676e-001 
1332500000  2.485932e-001  4.816239e-001 
1335000000  2.617753e-001  4.769562e-001 
1337500000  2.707350e-001  4.735636e-001 
1340000000  2.826121e-001  4.702304e-001 
1342500000  2.947119e-001  4.616708e-001 
1345000000  3.065480e-001  4.566919e-001 
1347500000  3.172126e-001  4.506695e-001 
1350000000  3.280149e-001  4.466031e-001 
1352500000  3.412682e-001  4.400072e-001 
1355000000  3.522657e-001  4.325266e-001 
1357500000  3.669120e-001  4.240890e-001 
1360000000  3.742014e-001  4.174652e-001 
1362500000  3.879637e-001  4.085147e-001 
1365000000  3.976407e-001  4.027633e-001 
1367500000  4.097611e-001  3.917996e-001 
1370000000  4.180399e-001  3.825214e-001 
1372500000  4.289337e-001  3.748072e-001 
1375000000  4.387309e-001  3.656508e-001 
1377500000  4.487641e-001  3.572945e-001 
1380000000  4.608924e-001  3.476582e-001 
1382500000  4.721615e-001  3.375513e-001 
1385000000  4.800983e-001  3.265523e-001 
1387500000  4.896303e-001  3.136107e-001 
1390000000  4.976483e-001  3.023941e-001 
1392500000  5.075834e-001  2.903123e-001 
1395000000  5.160344e-001  2.797799e-001 
1397500000  5.260662e-001  2.650753e-001 
1400000000  5.333162e-001  2.563866e-001 
1402500000  5.411711e-001  2.417530e-001 
1405000000  5.490398e-001  2.291898e-001 
1407500000  5.569341e-001  2.168892e-001 
1410000000  5.601473e-001  1.994817e-001 
1412500000  5.676185e-001  1.857954e-001 
1415000000  5.716255e-001  1.732124e-001 
1417500000  5.761532e-001  1.600420e-001 
1420000000  5.797958e-001  1.472590e-001 
1422500000  5.851015e-001  1.333402e-001 
1425000000  5.879940e-001  1.184410e-001 
1427500000  5.928003e-001  1.043231e-001 
1430000000  5.956638e-001  8.923486e-002 
1432500000  5.982428e-001  7.701572e-002 
1435000000  5.987256e-001  6.235970e-002 
1437500000  6.017250e-001  4.844867e-002 
1440000000  6.029752e-001  3.276360e-002 
1442500000  6.034999e-001  2.104553e-002 
1445000000  6.056663e-001  5.277016e-003 
1447500000  6.068446e-001  -8.698790e-003 
1450000000  6.074419e-001  -2.192265e-002 
1452500000  6.079697e-001  -3.789669e-002 
1455000000  6.037185e-001  -5.068165e-002 
1457500000  6.048627e-001  -6.651920e-002 
1460000000  6.029781e-001  -7.987476e-002 
1462500000  6.022681e-001  -9.163979e-002 
1465000000  6.003112e-001  -1.061154e-001 
1467500000  5.985196e-001  -1.208565e-001 
1470000000  5.951298e-001  -1.345139e-001 
1472500000  5.930796e-001  -1.493395e-001 
1475000000  5.910017e-001  -1.631341e-001 
1477500000  5.866867e-001  -1.756730e-001 
1480000000  5.826622e-001  -1.896913e-001 
1482500000  5.804996e-001  -2.022589e-001 
1485000000  5.728828e-001  -2.159563e-001 
1487500000  5.696377e-001  -2.287091e-001 
1490000000  5.643916e-001  -2.402418e-001 
1492500000  5.606081e-001  -2.542649e-001 
1495000000  5.552861e-001  -2.686503e-001 
1497500000  5.490643e-001  -2.794682e-001 
1500000000  5.429916e-001  -2.917413e-001 
1502500000  5.382884e-001  -3.076807e-001 
1505000000  5.321696e-001  -3.173683e-001 
1507500000  5.216511e-001  -3.326628e-001 
1510000000  5.149497e-001  -3.450586e-001 
1512500000  5.071250e-001  -3.582635e-001 
1515000000  4.990674e-001  -3.681768e-001 
1517500000  4.911713e-001  -3.823203e-001 
1520000000  4.812771e-001  -3.899743e-001 
1522500000  4.740218e-001  -4.026760e-001 
1525000000  4.656395e-001  -4.137722e-001 
1527500000  4.571230e-001  -4.245754e-001 
1530000000  4.485845e-001  -4.357526e-001 
1532500000  4.370852e-001  -4.472224e-001 
1535000000  4.254992e-001  -4.552700e-001 
1537500000  4.174716e-001  -4.651113e-001 
1540000000  4.062540e-001  -4.781145e-001 
1542500000  3.949147e-001  -4.869399e-001 
1545000000  3.846587e-001  -4.977822e-001 
1547500000  3.738739e-001  -5.051159e-001 
1550000000  3.639552e-001  -5.160411e-001 
1552500000  3.528590e-001  -5.249670e-001 
1555000000  3.402432e-001  -5.315485e-001 
1557500000  3.279347e-001  -5.442842e-001 
1560000000  3.126351e-001  -5.530120e-001 
1562500000  3.020661e-001  -5.581936e-001 
1565000000  2.885763e-001  -5.676294e-001 
1567500000  2.745531e-001  -5.753193e-001 
1570000000  2.606199e-001  -5.813286e-001 
1572500000  2.454203e-001  -5.871617e-001 
1575000000  2.328225e-001  -5.941616e-001 
1577500000  2.207878e-001  -5.985206e-001 
1580000000  2.075577e-001  -6.046037e-001 
1582500000  1.924269e-001  -6.109433e-001 
1585000000  1.805644e-001  -6.163173e-001 
1587500000  1.619712e-001  -6.213156e-001 
1590000000  1.504216e-001  -6.242725e-001 
1592500000  1.332117e-001  -6.271614e-001 
1595000000  1.196362e-001  -6.313012e-001 
1597500000  1.058660e-001  -6.336814e-001 
1600000000  9.040856e-002  -6.353466e-001 
1602500000  7.681851e-002  -6.367635e-001 
1605000000  6.280056e-002  -6.422114e-001 
1607500000  4.664817e-002  -6.398236e-001 
1610000000  3.345662e-002  -6.432633e-001 
1612500000  1.944762e-002  -6.424119e-001 
1615000000  3.705793e-003  -6.442900e-001 
1617500000  -8.995474e-003  -6.445085e-001 
1620000000  -2.697509e-002  -6.467134e-001 
1622500000  -3.895684e-002  -6.427429e-001 
1625000000  -5.411170e-002  -6.400706e-001 
1627500000  -7.079497e-002  -6.403423e-001 
1630000000  -8.399376e-002  -6.392867e-001 
1632500000  -9.779636e-002  -6.396675e-001 
1635000000  -1.132912e-001  -6.335058e-001 
1637500000  -1.274186e-001  -6.312891e-001 
1640000000  -1.401090e-001  -6.295961e-001 
1642500000  -1.567063e-001  -6.258445e-001 
1645000000  -1.720178e-001  -6.226170e-001 
1647500000  -1.872356e-001  -6.212133e-001 
1650000000  -2.005882e-001  -6.147636e-001 
1652500000  -2.136124e-001  -6.076836e-001 
1655000000  -2.288573e-001  -6.047300e-001 
1657500000  -2.437463e-001  -5.981682e-001 
1660000000  -2.567872e-001  -5.906283e-001 
